
**** 04/28/20 20:18:33 ****** PSpice 17.2.0 (March 2016) ****** ID# 0 ********

 ** Profile: "SCHEMATIC1-bias"  [ c:\users\nache\onedrive\escritorio\ise\simulaciones orcad\ise-pspicefiles\schematic1\bias.sim ] 


 ****     CIRCUIT DESCRIPTION


******************************************************************************




** Creating circuit file "bias.cir" 
** WARNING: THIS AUTOMATICALLY GENERATED FILE MAY BE OVERWRITTEN BY SUBSEQUENT SIMULATIONS

*Libraries: 
* Profile Libraries :
* Local Libraries :
* From [PSPICE NETLIST] section of C:\SPB_Data\cdssetup\OrCAD_PSpice\17.2.0\PSpice.ini file:
.lib "C:\Users\nache\OneDrive\Escritorio\ISE\SIMULACIONES ORCAD\COMPONENTES\Regulador 3.3\TLV75533P_TRANS.lib" 
.lib "C:\Users\nache\OneDrive\Escritorio\ISE\SIMULACIONES ORCAD\COMPONENTES\INA122_PSPICE_AIO\INA122.LIB" 
.lib "nom.lib" 

*Analysis directives: 
.TRAN  0 1s 0 1e-3 
.STEP LIN PARAM Rtd 923 1231 19.25 
.OPTIONS ADVCONV
.PROBE64 V(alias(*)) I(alias(*)) W(alias(*)) D(alias(*)) NOISE(alias(*)) 
.INC "..\SCHEMATIC1.net" 



**** INCLUDING SCHEMATIC1.net ****
* source ISE
R_Rh2         N06018 N06106  4.7 TC=0,0 
R_Rh3         0 N06018  4.7 TC=0,0 
R_Rl         0 VO  100k TC=0,0 
R_RTD         N06018 N05894  {Rtd} TC=0,0 
R_R2         VN 2V5  1k TC=0,0 
R_R3         N06106 VN  923 TC=0,0 
R_R1         VP 2V5  1k TC=0,0 
X_U1         VP VN 0V4 3V3 0 N05834 N05980 VO INA122
R_Rg         N05980 N05834  21900 TC=0,0 
R_Rh1         N05894 VP  4.7 TC=0,0 
R_R5         2V5 3V3  6.49 TC=0,0 
R_R4         0 0V4  3.24 TC=0,0 
C_Cin         0 5V  1u  TC=0,0 
C_Cout         0 3V3  0.47u  TC=0,0 
X_U2         5V 0 5V 3V3 0 TLV75533P_TRANS
V_V6         5V 0  
+SIN 5 0.25 50 0 0 0
R_R6         0V4 2V5  17 TC=0,0 
C_Cd1         0 3V3  0.1u  TC=0,0 
.PARAM  rtd=923

**** RESUMING bias.cir ****
.END

**** 04/28/20 20:18:33 ****** PSpice 17.2.0 (March 2016) ****** ID# 0 ********

 ** Profile: "SCHEMATIC1-bias"  [ c:\users\nache\onedrive\escritorio\ise\simulaciones orcad\ise-pspicefiles\schematic1\bias.sim ] 


 ****     Diode MODEL PARAMETERS


******************************************************************************




               X_U1.dx         
          IS  800.000000E-18 


**** 04/28/20 20:18:33 ****** PSpice 17.2.0 (March 2016) ****** ID# 0 ********

 ** Profile: "SCHEMATIC1-bias"  [ c:\users\nache\onedrive\escritorio\ise\simulaciones orcad\ise-pspicefiles\schematic1\bias.sim ] 


 ****     BJT MODEL PARAMETERS


******************************************************************************




               X_U1.qx1        X_U1.qx2        X_U1.qx         
               PNP             PNP             PNP             
       LEVEL    1               1               1            
          IS  800.000000E-18  800.000000E-18  800.000000E-18 
          BF  200             200             200            
          NF    1               1               1            
          BR    1               1               1            
          NR    1               1               1            
         ISS    0               0               0            
          RE    0               0               0            
          RC    0               0               0            
         CJE    0               0               0            
         VJE     .75             .75             .75         
         CJC    0               0               0            
         VJC     .75             .75             .75         
         MJC     .33             .33             .33         
        XCJC    1               1               1            
         CJS    0               0               0            
         VJS     .75             .75             .75         
          KF    0               0               0            
          AF    1               1               1            
          CN    2.2             2.2             2.2          
           D     .52             .52             .52         


**** 04/28/20 20:18:33 ****** PSpice 17.2.0 (March 2016) ****** ID# 0 ********

 ** Profile: "SCHEMATIC1-bias"  [ c:\users\nache\onedrive\escritorio\ise\simulaciones orcad\ise-pspicefiles\schematic1\bias.sim ] 


 ****     INITIAL TRANSIENT SOLUTION       TEMPERATURE =   27.000 DEG C

 ****     CURRENT STEP                     PARAM RTD =  923   


******************************************************************************



 NODE   VOLTAGE     NODE   VOLTAGE     NODE   VOLTAGE     NODE   VOLTAGE


(   5V)    5.0000  (   VN)     .0045  (   VO)     .0062  (   VP)     .0045      

(  0V4)     .0015  (  2V5)     .0093  (  3V3)     .0124  (N05834)     .0057     

(N05894)     .0045 (N05980)     .0060 (N06018) 45.25E-06 (N06106) 67.88E-06     

(X_U1.1)     .0062 (X_U1.2)     .5641 (X_U1.3)     .5641 (X_U1.1i)     .5641    

(X_U1.1o)     .5641                   (X_U1.2i)     .0057                       

(X_U1.2o)     .0060                   (X_U1.3i)     .0125                       

(X_U1.3o)     .0125                   (X_U1.4i)-112.3E-06                       

(X_U1.4o)-112.3E-06                   (X_U1.5i)     .0062                       

(X_U1.5o)     .0062                   (X_U1.6i)    -.1994                       

(X_U1.6o)    -.1498                   (X_U1.7i)     .0063                       

(X_U1.7o)     .0063                   (X_U1.8i)     .0063                       

(X_U1.8o)     .0063                   (X_U1.9i)    0.0000                       

(X_U1.9o)    0.0000                   (X_U2.FB)     .0022                       

(X_U1.10i)     .5931                  (X_U1.10o)     .5596                      

(X_U1.11i)     .0792                  (X_U1.11o)     .0529                      

(X_U1.12i)-112.3E-06                  (X_U1.12o)-112.3E-06                      

(X_U1.13i)     .5653                  (X_U1.13o)     .5583                      

(X_U1.14i)     .5931                  (X_U1.14o)     .5596                      

(X_U1.53i)    -.8364                  (X_U1.53o)    -.8364                      

(X_U1.54i)     .8487                  (X_U1.54o)     .8487                      

(X_U1.90i)     .0032                  (X_U1.90o)     .0015                      

(X_U1.91i)    3.0000                  (X_U1.91o)    3.0000                      

(X_U1.92i)   -3.0000                  (X_U1.92o)   -3.0000                      

(X_U1.99i)     .0062                  (X_U1.99o)     .0062                      

(X_U2.VXX)     .0041                  (X_U2.VYY)     .0041                      

(X_U2.VZZ)     .0121                  (X_U2.LOAD)    -.2242                     

(X_U2.DISCH)    1.0000                (X_U2.EN_OK)    1.0000                    

(X_U2.VOUT1)     .0124                (X_U2.V_FBK)     .0022                    

(X_U2.V_INT) 666.6E-06                (X_U2.EN_INT)    5.0000                   

(X_U2.DISCH_A)    1.0000              (X_U2.DISCH_B)    0.0000                  

(X_U2.ILIM_EN)    0.0000              (X_U2.N430233)     .0121                  

(X_U2.N430319)    6.7938              (X_U2.N430499)    1.0000                  

(X_U2.N430701)    1.0000              (X_U2.N431149)     .0121                  

(X_U2.N431153)     .0041              (X_U2.N440312)     .0124                  

(X_U2.N501262)     .0041              (X_U2.N508136)    1.0000                  

(X_U2.N508184)     .0249              (X_U2.N508352)     .0041                  

(X_U2.N508416)    0.0000              (X_U2.N508434)    0.0000                  

(X_U2.N508440)    0.0000              (X_U2.N508446)    1.0000                  

(X_U2.N516314)     .0041              (X_U2.U1_DROP)     .1500                  

(X_U2.VIN_INT)    5.0000              (X_U2.VZZ_INT)     .0121                  

(X_U2.U1_EN_IH)     .9000             (X_U2.X_U2.MY5)    1.0000                 

(X_U2.X_U2.Qbr)    1.0000             (X_U2.X_U2.Qqq) 2.002E-15                 

(X_U2.U1_EN_HYS)     .4000            (X_U2.U1_N08002)    1.3000                

(X_U2.U1_N08110) 659.8E-06            (X_U2.U1_N08364) 659.8E-06                

(X_U2.U1_N08450) 659.8E-06            (X_U2.U1_N08482) 659.8E-06                

(X_U2.U1_N08522)     .5175            (X_U2.U1_N08530) 120.0E-06                

(X_U2.U1_N08622)    1.0000            (X_U2.U1_N08828)    1.0000                

(X_U2.U1_N08864)     .0400            (X_U2.U1_VIN_OK)    1.0000                

(X_U2.X_U2.Qint) 2.002E-15            (X_U2.I_FOLDBACK)     .3550               

(X_U2.X_U1_U13.1)    1.0000           (X_U2.X_U1_U15.1)    1.0000               

(X_U2.X_U2.MYVSS)    0.0000           (X_U2.X_U2.Qqqd1)    0.0000               

(X_U2.X_U3.YINT1)    1.0000           (X_U2.X_U3.YINT2)    1.0000               

(X_U2.X_U3.YINT3)    0.0000           (X_U2.X_U2.X3.YINT)    0.0000             

(X_U2.X_U1_U13.INM1)   -4.1000        (X_U2.X_U1_U13.INP1)    0.0000            

(X_U2.X_U1_U13.INP2)     .4000        (X_U2.X_U1_U15.INM1)   -3.7000            

(X_U2.X_U1_U15.INP1)    0.0000        (X_U2.X_U1_U15.INP2)     .0400            

(X_U2.X_U1_U14.YINT1)    1.0000       (X_U2.X_U1_U14.YINT2)    1.0000           

(X_U2.X_U1_U14.YINT3)    1.0000       (X_U2.X_U1_U16.YINT1)    1.0000           

(X_U2.X_U1_U16.YINT2)    1.0000       (X_U2.X_U1_U16.YINT3)    1.0000       




    VOLTAGE SOURCE CURRENTS
    NAME         CURRENT

    V_V6         2.242E-01
    X_U1.vbo    -1.498E-06
    X_U1.vco    -1.123E-01
    X_U1.veo    -1.123E-01
    X_U1.vlimo   1.542E-06
    X_U1.vlpo   -2.999E-12
    X_U1.vlno   -3.002E-12
    X_U1.vbi    -1.994E-06
    X_U1.vci    -1.123E-01
    X_U1.vei    -1.123E-01
    X_U1.vlimi   3.195E-06
    X_U1.vlpi   -2.998E-12
    X_U1.vlni   -3.004E-12
    X_U2.V_U1_V5   0.000E+00
    X_U2.V_U1_V3   0.000E+00
    X_U2.V_U1_V7  -6.000E-02
    X_U2.V_U1_V6   0.000E+00
    X_U2.V_U1_V4   0.000E+00
    X_U2.X_H2.VH_H2  -2.242E-01
    X_U2.X_F1.VF_F1  -2.242E-01
    X_U2.X_U2.V1  -1.001E-12
    X_U2.X_U2.V2   2.776E-27

    TOTAL POWER DISSIPATION  -7.09E-01  WATTS


**** 04/28/20 20:18:33 ****** PSpice 17.2.0 (March 2016) ****** ID# 0 ********

 ** Profile: "SCHEMATIC1-bias"  [ c:\users\nache\onedrive\escritorio\ise\simulaciones orcad\ise-pspicefiles\schematic1\bias.sim ] 


 ****     INITIAL TRANSIENT SOLUTION       TEMPERATURE =   27.000 DEG C

 ****     CURRENT STEP                     PARAM RTD =  942.25


******************************************************************************



 NODE   VOLTAGE     NODE   VOLTAGE     NODE   VOLTAGE     NODE   VOLTAGE


(   5V)    5.0000  (   VN)     .0045  (   VO)     .0062  (   VP)     .0046      

(  0V4)     .0015  (  2V5)     .0093  (  3V3)     .0124  (N05834)     .0057     

(N05894)     .0045 (N05980)     .0060 (N06018) 45.03E-06 (N06106) 67.66E-06     

(X_U1.1)     .0062 (X_U1.2)     .5641 (X_U1.3)     .5641 (X_U1.1i)     .5641    

(X_U1.1o)     .5641                   (X_U1.2i)     .0057                       

(X_U1.2o)     .0060                   (X_U1.3i)     .0125                       

(X_U1.3o)     .0125                   (X_U1.4i)-112.3E-06                       

(X_U1.4o)-112.3E-06                   (X_U1.5i)     .0062                       

(X_U1.5o)     .0062                   (X_U1.6i)    -.1994                       

(X_U1.6o)    -.1498                   (X_U1.7i)     .0063                       

(X_U1.7o)     .0063                   (X_U1.8i)     .0063                       

(X_U1.8o)     .0063                   (X_U1.9i)    0.0000                       

(X_U1.9o)    0.0000                   (X_U2.FB)     .0022                       

(X_U1.10i)     .5931                  (X_U1.10o)     .5596                      

(X_U1.11i)     .0792                  (X_U1.11o)     .0529                      

(X_U1.12i)-112.3E-06                  (X_U1.12o)-112.3E-06                      

(X_U1.13i)     .5653                  (X_U1.13o)     .5583                      

(X_U1.14i)     .5931                  (X_U1.14o)     .5596                      

(X_U1.53i)    -.8364                  (X_U1.53o)    -.8364                      

(X_U1.54i)     .8487                  (X_U1.54o)     .8487                      

(X_U1.90i)     .0032                  (X_U1.90o)     .0015                      

(X_U1.91i)    3.0000                  (X_U1.91o)    3.0000                      

(X_U1.92i)   -3.0000                  (X_U1.92o)   -3.0000                      

(X_U1.99i)     .0062                  (X_U1.99o)     .0062                      

(X_U2.VXX)     .0041                  (X_U2.VYY)     .0041                      

(X_U2.VZZ)     .0121                  (X_U2.LOAD)    -.2242                     

(X_U2.DISCH)    1.0000                (X_U2.EN_OK)    1.0000                    

(X_U2.VOUT1)     .0124                (X_U2.V_FBK)     .0022                    

(X_U2.V_INT) 666.6E-06                (X_U2.EN_INT)    5.0000                   

(X_U2.DISCH_A)    1.0000              (X_U2.DISCH_B)    0.0000                  

(X_U2.ILIM_EN)    0.0000              (X_U2.N430233)     .0121                  

(X_U2.N430319)    6.7938              (X_U2.N430499)    1.0000                  

(X_U2.N430701)    1.0000              (X_U2.N431149)     .0121                  

(X_U2.N431153)     .0041              (X_U2.N440312)     .0124                  

(X_U2.N501262)     .0041              (X_U2.N508136)    1.0000                  

(X_U2.N508184)     .0249              (X_U2.N508352)     .0041                  

(X_U2.N508416)    0.0000              (X_U2.N508434)    0.0000                  

(X_U2.N508440)    0.0000              (X_U2.N508446)    1.0000                  

(X_U2.N516314)     .0041              (X_U2.U1_DROP)     .1500                  

(X_U2.VIN_INT)    5.0000              (X_U2.VZZ_INT)     .0121                  

(X_U2.U1_EN_IH)     .9000             (X_U2.X_U2.MY5)    1.0000                 

(X_U2.X_U2.Qbr)    1.0000             (X_U2.X_U2.Qqq) 2.002E-15                 

(X_U2.U1_EN_HYS)     .4000            (X_U2.U1_N08002)    1.3000                

(X_U2.U1_N08110) 659.8E-06            (X_U2.U1_N08364) 659.8E-06                

(X_U2.U1_N08450) 659.8E-06            (X_U2.U1_N08482) 659.8E-06                

(X_U2.U1_N08522)     .5175            (X_U2.U1_N08530) 120.0E-06                

(X_U2.U1_N08622)    1.0000            (X_U2.U1_N08828)    1.0000                

(X_U2.U1_N08864)     .0400            (X_U2.U1_VIN_OK)    1.0000                

(X_U2.X_U2.Qint) 2.002E-15            (X_U2.I_FOLDBACK)     .3550               

(X_U2.X_U1_U13.1)    1.0000           (X_U2.X_U1_U15.1)    1.0000               

(X_U2.X_U2.MYVSS)    0.0000           (X_U2.X_U2.Qqqd1)    0.0000               

(X_U2.X_U3.YINT1)    1.0000           (X_U2.X_U3.YINT2)    1.0000               

(X_U2.X_U3.YINT3)    0.0000           (X_U2.X_U2.X3.YINT)    0.0000             

(X_U2.X_U1_U13.INM1)   -4.1000        (X_U2.X_U1_U13.INP1)    0.0000            

(X_U2.X_U1_U13.INP2)     .4000        (X_U2.X_U1_U15.INM1)   -3.7000            

(X_U2.X_U1_U15.INP1)    0.0000        (X_U2.X_U1_U15.INP2)     .0400            

(X_U2.X_U1_U14.YINT1)    1.0000       (X_U2.X_U1_U14.YINT2)    1.0000           

(X_U2.X_U1_U14.YINT3)    1.0000       (X_U2.X_U1_U16.YINT1)    1.0000           

(X_U2.X_U1_U16.YINT2)    1.0000       (X_U2.X_U1_U16.YINT3)    1.0000       




    VOLTAGE SOURCE CURRENTS
    NAME         CURRENT

    V_V6         2.242E-01
    X_U1.vbo    -1.498E-06
    X_U1.vco    -1.123E-01
    X_U1.veo    -1.123E-01
    X_U1.vlimo   1.540E-06
    X_U1.vlpo   -2.999E-12
    X_U1.vlno   -3.002E-12
    X_U1.vbi    -1.994E-06
    X_U1.vci    -1.123E-01
    X_U1.vei    -1.123E-01
    X_U1.vlimi   3.173E-06
    X_U1.vlpi   -2.998E-12
    X_U1.vlni   -3.004E-12
    X_U2.V_U1_V5   0.000E+00
    X_U2.V_U1_V3   0.000E+00
    X_U2.V_U1_V7  -6.000E-02
    X_U2.V_U1_V6   0.000E+00
    X_U2.V_U1_V4   0.000E+00
    X_U2.X_H2.VH_H2  -2.242E-01
    X_U2.X_F1.VF_F1  -2.242E-01
    X_U2.X_U2.V1  -1.001E-12
    X_U2.X_U2.V2   2.776E-27

    TOTAL POWER DISSIPATION  -7.09E-01  WATTS


**** 04/28/20 20:18:33 ****** PSpice 17.2.0 (March 2016) ****** ID# 0 ********

 ** Profile: "SCHEMATIC1-bias"  [ c:\users\nache\onedrive\escritorio\ise\simulaciones orcad\ise-pspicefiles\schematic1\bias.sim ] 


 ****     INITIAL TRANSIENT SOLUTION       TEMPERATURE =   27.000 DEG C

 ****     CURRENT STEP                     PARAM RTD =  961.5 


******************************************************************************



 NODE   VOLTAGE     NODE   VOLTAGE     NODE   VOLTAGE     NODE   VOLTAGE


(   5V)    5.0000  (   VN)     .0045  (   VO)     .0062  (   VP)     .0046      

(  0V4)     .0015  (  2V5)     .0093  (  3V3)     .0124  (N05834)     .0057     

(N05894)     .0046 (N05980)     .0060 (N06018) 44.81E-06 (N06106) 67.44E-06     

(X_U1.1)     .0062 (X_U1.2)     .5641 (X_U1.3)     .5642 (X_U1.1i)     .5641    

(X_U1.1o)     .5642                   (X_U1.2i)     .0057                       

(X_U1.2o)     .0060                   (X_U1.3i)     .0125                       

(X_U1.3o)     .0125                   (X_U1.4i)-112.3E-06                       

(X_U1.4o)-112.3E-06                   (X_U1.5i)     .0062                       

(X_U1.5o)     .0062                   (X_U1.6i)    -.1994                       

(X_U1.6o)    -.1498                   (X_U1.7i)     .0063                       

(X_U1.7o)     .0063                   (X_U1.8i)     .0063                       

(X_U1.8o)     .0063                   (X_U1.9i)    0.0000                       

(X_U1.9o)    0.0000                   (X_U2.FB)     .0022                       

(X_U1.10i)     .5931                  (X_U1.10o)     .5596                      

(X_U1.11i)     .0792                  (X_U1.11o)     .0529                      

(X_U1.12i)-112.3E-06                  (X_U1.12o)-112.3E-06                      

(X_U1.13i)     .5653                  (X_U1.13o)     .5583                      

(X_U1.14i)     .5931                  (X_U1.14o)     .5596                      

(X_U1.53i)    -.8364                  (X_U1.53o)    -.8364                      

(X_U1.54i)     .8487                  (X_U1.54o)     .8487                      

(X_U1.90i)     .0032                  (X_U1.90o)     .0016                      

(X_U1.91i)    3.0000                  (X_U1.91o)    3.0000                      

(X_U1.92i)   -3.0000                  (X_U1.92o)   -3.0000                      

(X_U1.99i)     .0062                  (X_U1.99o)     .0062                      

(X_U2.VXX)     .0041                  (X_U2.VYY)     .0041                      

(X_U2.VZZ)     .0121                  (X_U2.LOAD)    -.2242                     

(X_U2.DISCH)    1.0000                (X_U2.EN_OK)    1.0000                    

(X_U2.VOUT1)     .0124                (X_U2.V_FBK)     .0022                    

(X_U2.V_INT) 666.6E-06                (X_U2.EN_INT)    5.0000                   

(X_U2.DISCH_A)    1.0000              (X_U2.DISCH_B)    0.0000                  

(X_U2.ILIM_EN)    0.0000              (X_U2.N430233)     .0121                  

(X_U2.N430319)    6.7938              (X_U2.N430499)    1.0000                  

(X_U2.N430701)    1.0000              (X_U2.N431149)     .0121                  

(X_U2.N431153)     .0041              (X_U2.N440312)     .0124                  

